<Qucs Dataset 0.0.22>
<indep frequency 305>
1.000000000000e+00
1.062467830894e+00
1.128837891685e+00
1.199353946209e+00
1.274274985703e+00
1.353876180023e+00
1.438449888288e+00
1.528306732659e+00
1.623776739189e+00
1.725210549942e+00
1.832980710832e+00
1.947483039909e+00
2.069138081115e+00
2.198392648862e+00
2.335721469090e+00
2.481628922837e+00
2.636650898730e+00
2.801356761199e+00
2.976351441631e+00
3.162277660168e+00
3.359818286284e+00
3.569698846826e+00
3.792690190732e+00
4.029611320200e+00
4.281332398719e+00
4.548777947004e+00
4.832930238572e+00
5.134832907438e+00
5.455594781169e+00
5.796393953385e+00
6.158482110660e+00
6.543189129713e+00
6.951927961776e+00
7.386199822079e+00
7.847599703515e+00
8.337822234718e+00
8.858667904101e+00
9.412049672681e+00
1.000000000000e+01
1.062467830894e+01
1.128837891685e+01
1.199353946209e+01
1.274274985703e+01
1.353876180023e+01
1.438449888288e+01
1.528306732659e+01
1.623776739189e+01
1.725210549942e+01
1.832980710832e+01
1.947483039909e+01
2.069138081115e+01
2.198392648862e+01
2.335721469090e+01
2.481628922837e+01
2.636650898730e+01
2.801356761199e+01
2.976351441631e+01
3.162277660168e+01
3.359818286284e+01
3.569698846826e+01
3.792690190732e+01
4.029611320200e+01
4.281332398719e+01
4.548777947004e+01
4.832930238572e+01
5.134832907438e+01
5.455594781168e+01
5.796393953385e+01
6.158482110660e+01
6.543189129713e+01
6.951927961776e+01
7.386199822079e+01
7.847599703515e+01
8.337822234718e+01
8.858667904101e+01
9.412049672681e+01
1.000000000000e+02
1.062467830894e+02
1.128837891685e+02
1.199353946209e+02
1.274274985703e+02
1.353876180023e+02
1.438449888288e+02
1.528306732659e+02
1.623776739189e+02
1.725210549942e+02
1.832980710832e+02
1.947483039909e+02
2.069138081115e+02
2.198392648862e+02
2.335721469090e+02
2.481628922837e+02
2.636650898730e+02
2.801356761199e+02
2.976351441631e+02
3.162277660168e+02
3.359818286284e+02
3.569698846826e+02
3.792690190732e+02
4.029611320200e+02
4.281332398719e+02
4.548777947004e+02
4.832930238572e+02
5.134832907438e+02
5.455594781168e+02
5.796393953385e+02
6.158482110660e+02
6.543189129713e+02
6.951927961776e+02
7.386199822079e+02
7.847599703515e+02
8.337822234718e+02
8.858667904101e+02
9.412049672681e+02
1.000000000000e+03
1.062467830894e+03
1.128837891685e+03
1.199353946209e+03
1.274274985703e+03
1.353876180023e+03
1.438449888288e+03
1.528306732659e+03
1.623776739189e+03
1.725210549942e+03
1.832980710832e+03
1.947483039909e+03
2.069138081115e+03
2.198392648862e+03
2.335721469090e+03
2.481628922837e+03
2.636650898730e+03
2.801356761199e+03
2.976351441631e+03
3.162277660168e+03
3.359818286284e+03
3.569698846826e+03
3.792690190732e+03
4.029611320200e+03
4.281332398719e+03
4.548777947004e+03
4.832930238572e+03
5.134832907437e+03
5.455594781168e+03
5.796393953385e+03
6.158482110660e+03
6.543189129713e+03
6.951927961776e+03
7.386199822079e+03
7.847599703515e+03
8.337822234718e+03
8.858667904101e+03
9.412049672681e+03
1.000000000000e+04
1.062467830894e+04
1.128837891685e+04
1.199353946209e+04
1.274274985703e+04
1.353876180023e+04
1.438449888288e+04
1.528306732659e+04
1.623776739189e+04
1.725210549942e+04
1.832980710832e+04
1.947483039909e+04
2.069138081115e+04
2.198392648862e+04
2.335721469090e+04
2.481628922837e+04
2.636650898730e+04
2.801356761199e+04
2.976351441631e+04
3.162277660168e+04
3.359818286284e+04
3.569698846826e+04
3.792690190732e+04
4.029611320200e+04
4.281332398719e+04
4.548777947004e+04
4.832930238572e+04
5.134832907437e+04
5.455594781168e+04
5.796393953385e+04
6.158482110660e+04
6.543189129713e+04
6.951927961776e+04
7.386199822079e+04
7.847599703514e+04
8.337822234718e+04
8.858667904101e+04
9.412049672681e+04
1.000000000000e+05
1.062467830894e+05
1.128837891685e+05
1.199353946209e+05
1.274274985703e+05
1.353876180023e+05
1.438449888288e+05
1.528306732659e+05
1.623776739189e+05
1.725210549942e+05
1.832980710832e+05
1.947483039909e+05
2.069138081115e+05
2.198392648862e+05
2.335721469090e+05
2.481628922837e+05
2.636650898730e+05
2.801356761199e+05
2.976351441631e+05
3.162277660168e+05
3.359818286284e+05
3.569698846826e+05
3.792690190732e+05
4.029611320200e+05
4.281332398719e+05
4.548777947004e+05
4.832930238572e+05
5.134832907437e+05
5.455594781168e+05
5.796393953385e+05
6.158482110660e+05
6.543189129713e+05
6.951927961775e+05
7.386199822079e+05
7.847599703514e+05
8.337822234718e+05
8.858667904101e+05
9.412049672680e+05
1.000000000000e+06
1.062467830894e+06
1.128837891685e+06
1.199353946209e+06
1.274274985703e+06
1.353876180023e+06
1.438449888288e+06
1.528306732659e+06
1.623776739189e+06
1.725210549942e+06
1.832980710832e+06
1.947483039909e+06
2.069138081115e+06
2.198392648862e+06
2.335721469090e+06
2.481628922837e+06
2.636650898730e+06
2.801356761199e+06
2.976351441631e+06
3.162277660168e+06
3.359818286284e+06
3.569698846826e+06
3.792690190732e+06
4.029611320200e+06
4.281332398719e+06
4.548777947004e+06
4.832930238572e+06
5.134832907437e+06
5.455594781168e+06
5.796393953385e+06
6.158482110660e+06
6.543189129713e+06
6.951927961775e+06
7.386199822079e+06
7.847599703514e+06
8.337822234718e+06
8.858667904101e+06
9.412049672680e+06
1.000000000000e+07
1.062467830894e+07
1.128837891685e+07
1.199353946209e+07
1.274274985703e+07
1.353876180023e+07
1.438449888288e+07
1.528306732659e+07
1.623776739189e+07
1.725210549942e+07
1.832980710832e+07
1.947483039909e+07
2.069138081115e+07
2.198392648862e+07
2.335721469090e+07
2.481628922837e+07
2.636650898730e+07
2.801356761199e+07
2.976351441631e+07
3.162277660168e+07
3.359818286284e+07
3.569698846826e+07
3.792690190732e+07
4.029611320200e+07
4.281332398719e+07
4.548777947004e+07
4.832930238572e+07
5.134832907437e+07
5.455594781168e+07
5.796393953385e+07
6.158482110660e+07
6.543189129713e+07
6.951927961775e+07
7.386199822079e+07
7.847599703514e+07
8.337822234718e+07
8.858667904101e+07
9.412049672680e+07
1.000000000000e+08
</indep>
<dep ac.v(input) frequency>
1.104598981234e-08+j9.347094929799e-10
1.104599009640e-08+j9.930987675167e-10
1.104599041751e-08+j1.055135493382e-09
1.104599078067e-08+j1.121047518945e-09
1.104599119074e-08+j1.191076925773e-09
1.104599165277e-08+j1.265480917743e-09
1.104599217359e-08+j1.344532765698e-09
1.104599276367e-08+j1.428522811121e-09
1.104599342907e-08+j1.517759532495e-09
1.104599418040e-08+j1.612570678285e-09
1.104599502773e-08+j1.713304470693e-09
1.104599598416e-08+j1.820330884604e-09
1.104599706435e-08+j1.934043006437e-09
1.104599828456e-08+j2.054858477857e-09
1.104599966004e-08+j2.183221029704e-09
1.104600121449e-08+j2.319602111722e-09
1.104600296699e-08+j2.464502624097e-09
1.104600494644e-08+j2.618454757157e-09
1.104600718139e-08+j2.782023946010e-09
1.104600970398e-08+j2.955810947270e-09
1.104601254955e-08+j3.140454045496e-09
1.104601576299e-08+j3.336631397536e-09
1.104601939303e-08+j3.545063523187e-09
1.104602348942e-08+j3.766515951566e-09
1.104602820331e-08+j4.001802032852e-09
1.104603342367e-08+j4.251785925084e-09
1.104603931555e-08+j4.517385768743e-09
1.104604596406e-08+j4.799577058401e-09
1.104605347257e-08+j5.099396225714e-09
1.104606194881e-08+j5.417944445932e-09
1.104607151280e-08+j5.756391682296e-09
1.104608231384e-08+j6.115980983208e-09
1.104609459609e-08+j6.498033047691e-09
1.104610835881e-08+j6.903951075449e-09
1.104612389305e-08+j7.335225921554e-09
1.104614142676e-08+j7.793441571361e-09
1.104616131282e-08+j8.280280958636e-09
1.104618365722e-08+j8.797532145574e-09
1.104620897340e-08+j9.347094891722e-09
1.104623744414e-08+j9.930987629371e-09
1.104626967988e-08+j1.055135487912e-08
1.104630596176e-08+j1.121047512371e-08
1.104634700938e-08+j1.191076917915e-08
1.104639333433e-08+j1.265480908343e-08
1.104644561445e-08+j1.344532754450e-08
1.104650462078e-08+j1.428522797660e-08
1.104657121388e-08+j1.517759516381e-08
1.104664637620e-08+j1.612570659001e-08
1.104673129967e-08+j1.713304447665e-08
1.104682705096e-08+j1.820330857052e-08
1.104693521470e-08+j1.934042973531e-08
1.104705728947e-08+j2.054858438563e-08
1.104719515722e-08+j2.183220982856e-08
1.104735065815e-08+j2.319602055804e-08
1.104752625895e-08+j2.464502557455e-08
1.104772453622e-08+j2.618454677844e-08
1.104794830492e-08+j2.782023851641e-08
1.104820085258e-08+j2.955810835048e-08
1.104848597141e-08+j3.140453912236e-08
1.104880784897e-08+j3.336631239494e-08
1.104917111462e-08+j3.545063335897e-08
1.104958118468e-08+j3.766515729933e-08
1.105004408374e-08+j4.001801770865e-08
1.105056659655e-08+j4.251785616036e-08
1.105115638770e-08+j4.517385404769e-08
1.105182219946e-08+j4.799576630634e-08
1.105257370988e-08+j5.099395723860e-08
1.105342193480e-08+j5.417943858240e-08
1.105437950419e-08+j5.756390995837e-08
1.105546036862e-08+j6.115980183136e-08
1.105668038116e-08+j6.498032117128e-08
1.105805743851e-08+j6.903949995838e-08
1.105961191868e-08+j7.335224672349e-08
1.106136662837e-08+j7.793440129690e-08
1.106334721133e-08+j8.280279298443e-08
1.106558290823e-08+j8.797530238893e-08
1.106810643007e-08+j9.347092706608e-08
1.107095507334e-08+j9.930985131627e-08
1.107417045381e-08+j1.055135202922e-07
1.107780012337e-08+j1.121047187943e-07
1.108189715872e-08+j1.191076549140e-07
1.108652187540e-08+j1.265480489785e-07
1.109174224142e-08+j1.344532279959e-07
1.109763496837e-08+j1.428522260230e-07
1.110428683149e-08+j1.517758908087e-07
1.111179556498e-08+j1.612569970704e-07
1.112027156941e-08+j1.713303668766e-07
1.112983936984e-08+j1.820329975304e-07
1.114063978485e-08+j1.934041974643e-07
1.115283155837e-08+j2.054857305834e-07
1.116659394376e-08+j2.183219696601e-07
1.118212934918e-08+j2.319600593008e-07
1.119966631195e-08+j2.464500890889e-07
1.121946237848e-08+j2.618452775013e-07
1.124180891101e-08+j2.782021674348e-07
1.126703435289e-08+j2.955808337773e-07
1.129550977345e-08+j3.140451040895e-07
1.132765377752e-08+j3.336627929534e-07
1.136393910586e-08+j3.545059510558e-07
1.140489929444e-08+j3.766511297461e-07
1.145113670168e-08+j4.001796621706e-07
1.150333115403e-08+j4.251779619131e-07
1.156225003476e-08+j4.517378403140e-07
1.162875990128e-08+j4.799568436519e-07
1.170383876481e-08+j5.099386112530e-07
1.178859051779e-08+j5.417932560242e-07
1.188426162189e-08+j5.756377688203e-07
1.199225846976e-08+j6.115964477973e-07
1.211416942662e-08+j6.498013549865e-07
1.225178685056e-08+j6.903928008466e-07
1.240713469401e-08+j7.335198595768e-07
1.258249711928e-08+j7.793409160568e-07
1.278045247291e-08+j8.280242472272e-07
1.300391199225e-08+j8.797486398829e-07
1.325616112745e-08+j9.347040463427e-07
1.354090909523e-08+j9.930922817527e-07
1.386234302347e-08+j1.055127764391e-06
1.422518934368e-08+j1.121038302135e-06
1.463478306298e-08+j1.191065927858e-06
1.509714728172e-08+j1.265467787360e-06
1.561907995217e-08+j1.344517081395e-06
1.620825640085e-08+j1.428504068085e-06
1.687333878381e-08+j1.517737125084e-06
1.762410680711e-08+j1.612543880708e-06
1.847159886289e-08+j1.713272412492e-06
1.942827615865e-08+j1.820292522271e-06
2.050820502582e-08+j1.933997088894e-06
2.172726308711e-08+j2.054803504678e-06
2.310337378120e-08+j2.183155201760e-06
2.465676947656e-08+j2.319523271794e-06
2.641028811436e-08+j2.464408185165e-06
2.838970974926e-08+j2.618341617134e-06
3.062413434689e-08+j2.781888384639e-06
3.314641020712e-08+j2.955648503296e-06
3.599361608056e-08+j3.140259368960e-06
3.920760573357e-08+j3.336398072587e-06
4.283562244975e-08+j3.544783855426e-06
4.693099327023e-08+j3.766180713637e-06
5.155391160472e-08+j4.001400158923e-06
5.677232022282e-08+j4.251304144314e-06
6.266290884010e-08+j4.516808165766e-06
6.931223872227e-08+j4.798884546171e-06
7.681801280629e-08+j5.098565914144e-06
8.529050717188e-08+j5.416948883476e-06
9.485418784404e-08+j5.755197947612e-06
1.056495329331e-07+j6.114549594032e-06
1.178350906274e-07+j6.496316654710e-06
1.315897982948e-07+j6.901892895006e-06
1.471155996630e-07+j7.332757856340e-06
1.646403950742e-07+j7.790481956211e-06
1.844213690754e-07+j8.276731857207e-06
2.067487430250e-07+j8.793276112271e-06
2.319500030995e-07+j9.341991084692e-06
2.603946669929e-07+j9.924867152315e-06
2.924996561927e-07+j1.054401519712e-05
3.287353461136e-07+j1.120167336829e-05
3.696323815788e-07+j1.190021411960e-05
4.157893511997e-07+j1.264215150671e-05
4.678814247974e-07+j1.343014872171e-05
5.266700725606e-07+j1.426702584102e-05
5.930139944208e-07+j1.515576774229e-05
6.678814086944e-07+j1.609953215281e-05
7.523638559099e-07+j1.710165774922e-05
8.476916991256e-07+j1.816567223724e-05
9.552515139674e-07+j1.929530029847e-05
1.076605586134e-06+j2.049447128338e-05
1.213513746084e-06+j2.176732647172e-05
1.367957799231e-06+j2.311822571150e-05
1.542168828948e-06+j2.455175319951e-05
1.738657656018e-06+j2.607272206584e-05
1.960248781887e-06+j2.768617745480e-05
2.210118128160e-06+j2.939739761170e-05
2.491834914968e-06+j3.121189247535e-05
2.809408020022e-06+j3.313539915234e-05
3.167337128965e-06+j3.517387346088e-05
3.570669019283e-06+j3.733347676160e-05
4.025059203369e-06+j3.962055689337e-05
4.536839156151e-06+j4.204162206627e-05
5.113089200274e-06+j4.460330619926e-05
5.761717014429e-06+j4.731232407593e-05
6.491541487544e-06+j5.017541432941e-05
7.312381398458e-06+j5.319926808288e-05
8.235147991895e-06+j5.639044068760e-05
9.271940114693e-06+j5.975524388889e-05
1.043613985051e-05+j6.329961522159e-05
1.174250594192e-05+j6.702896152363e-05
1.320726121641e-05+j7.094797307738e-05
1.484816913349e-05+j7.506040508135e-05
1.668459312802e-05+j7.936882332019e-05
1.873753082578e-05+j8.387431151864e-05
2.102961333599e-05+j8.857613885068e-05
2.358505787785e-05+j9.347138773483e-05
2.642955996234e-05+j9.855454442088e-05
2.959010954211e-05+j1.038170582544e-04
3.309471420313e-05+j1.092468799789e-04
3.697201194946e-05+j1.148279950404e-04
4.125075732323e-05+j1.205399749025e-04
4.595916765174e-05+j1.263575770471e-04
5.112412236530e-05+j1.322504326479e-04
5.677021818593e-05+j1.381828687992e-04
6.291869645205e-05+j1.441139177573e-04
6.958627653231e-05+j1.499975679734e-04
7.678395017604e-05+j1.557833082564e-04
8.451581320541e-05+j1.614170051957e-04
9.277803185434e-05+j1.668421343020e-04
1.015580556810e-04+j1.720013563122e-04
1.108341959132e-04+j1.768383939107e-04
1.205756807208e-04+j1.813001232310e-04
1.307432783991e-04+j1.853387547685e-04
1.412905428427e-04+j1.889139453563e-04
1.521656891837e-04+j1.919946630587e-04
1.633140543612e-04+j1.945606246051e-04
1.746810491422e-04+j1.966031412865e-04
1.862154711173e-04+j1.981252407863e-04
1.978730306585e-04+j1.991409710821e-04
2.096199472069e-04+j1.996738259011e-04
2.214364963988e-04+j1.997542462850e-04
2.333204241322e-04+j1.994161323394e-04
2.452901704305e-04+j1.986922309427e-04
2.573878401051e-04+j1.976081322580e-04
2.696817733374e-04+j1.961743978878e-04
2.822683329693e-04+j1.943760494073e-04
2.952720095017e-04+j1.921582829319e-04
3.088419303051e-04+j1.894069363819e-04
3.231410110331e-04+j1.859222130208e-04
3.383208949342e-04+j1.813852270350e-04
3.544713747716e-04+j1.753208255954e-04
3.715286374390e-04+j1.670701324323e-04
3.891286325347e-04+j1.558065645326e-04
4.064160677035e-04+j1.406589639386e-04
4.218899523848e-04+j1.210210920652e-04
4.334793869577e-04+j9.705752913457e-05
4.390783102590e-04+j7.018629028023e-05
4.374901310762e-04+j4.305721763755e-05
4.291881099609e-04+j1.871407429563e-05
4.161870390742e-04-j6.175245007142e-07
4.010871278574e-04-j1.421053402943e-05
3.860821042442e-04-j2.263017395381e-05
3.725177284431e-04-j2.707412046692e-05
3.609612788265e-04-j2.880143566468e-05
3.514720747054e-04-j2.884623753552e-05
3.438533270163e-04-j2.795216642214e-05
3.378164447024e-04-j2.661116537988e-05
3.330676331933e-04-j2.512964399263e-05
3.293451280636e-04-j2.368852843241e-05
3.264302236063e-04-j2.238820784351e-05
3.241462762093e-04-j2.127924902791e-05
3.223531620535e-04-j2.038236675618e-05
3.209407198744e-04-j1.970102629285e-05
3.198226490580e-04-j1.922923743697e-05
3.189313477186e-04-j1.895629505670e-05
3.182137439581e-04-j1.886961114498e-05
3.176280089243e-04-j1.895636607271e-05
3.171409958974e-04-j1.920443500205e-05
3.167262546621e-04-j1.960287301752e-05
3.163624923885e-04-j2.014213453177e-05
3.160323772060e-04-j2.081413521621e-05
3.157216032869e-04-j2.161222279801e-05
3.154181550292e-04-j2.253109696152e-05
3.151117228431e-04-j2.356670231606e-05
3.147932346304e-04-j2.471610827449e-05
3.144544759254e-04-j2.597738344373e-05
3.140877784088e-04-j2.734946831605e-05
3.136857615944e-04-j2.883204775812e-05
3.132411163134e-04-j3.042542343235e-05
3.127464215030e-04-j3.213038546833e-05
3.121939880102e-04-j3.394808219904e-05
3.115757248500e-04-j3.587988644428e-05
3.108830247782e-04-j3.792725659212e-05
3.101066672716e-04-j4.009159057149e-05
3.092367381503e-04-j4.237407072970e-05
3.082625661741e-04-j4.477549764963e-05
3.071726780501e-04-j4.729611110031e-05
3.059547744037e-04-j4.993539665579e-05
3.045957303868e-04-j5.269187709224e-05
3.030816256976e-04-j5.556288853701e-05
3.013978098020e-04-j5.854434254939e-05
2.995290090034e-04-j6.163047690809e-05
2.974594825814e-04-j6.481359989722e-05
2.951732353627e-04-j6.808383532383e-05
2.926542936251e-04-j7.142887832749e-05
2.898870499546e-04-j7.483377515339e-05
2.868566803760e-04-j7.828074327088e-05
2.835496335657e-04-j8.174905124364e-05
2.799541871111e-04-j8.521498019715e-05
2.760610595924e-04-j8.865189007882e-05
2.718640599155e-04-j9.203041357940e-05
2.673607472185e-04-j9.531879797767e-05
2.625530665249e-04-j9.848340975591e-05
2.574479180937e-04-j1.014894082947e-04
2.520576133520e-04-j1.043015833302e-04
2.464001686860e-04-j1.068853366819e-04
2.404993914169e-04-j1.092077731392e-04
2.343847208009e-04-j1.112388500251e-04
2.280908009997e-04-j1.129525219041e-04
2.216567819407e-04-j1.143278084119e-04
2.151253661175e-04-j1.153497111636e-04
2.085416421773e-04-j1.160099113749e-04
2.019517666126e-04-j1.163071933099e-04
1.954015701132e-04-j1.162475588317e-04
1.889351728290e-04-j1.158440228596e-04
1.825936917617e-04-j1.151161053364e-04
1.764141139098e-04-j1.140890590377e-04
1.704283921394e-04-j1.127928912592e-04
1.646627995428e-04-j1.112612490604e-04
</dep>
<dep ac.v(output) frequency>
-9.999651747753e-03+j2.946904479721e-08
-9.999651747744e-03+j3.130991210403e-08
-9.999651747734e-03+j3.326577439849e-08
-9.999651747723e-03+j3.534381516793e-08
-9.999651747710e-03+j3.755166663669e-08
-9.999651747695e-03+j3.989743779758e-08
-9.999651747679e-03+j4.238974419458e-08
-9.999651747660e-03+j4.503773956607e-08
-9.999651747640e-03+j4.785114946452e-08
-9.999651747616e-03+j5.084030697662e-08
-9.999651747589e-03+j5.401619067455e-08
-9.999651747559e-03+j5.739046493807e-08
-9.999651747526e-03+j6.097552279556e-08
-9.999651747487e-03+j6.478453144072e-08
-9.999651747444e-03+j6.883148059346e-08
-9.999651747395e-03+j7.313123388116e-08
-9.999651747340e-03+j7.769958342975e-08
-9.999651747278e-03+j8.255330786481e-08
-9.999651747208e-03+j8.771023393647e-08
-9.999651747129e-03+j9.318930199318e-08
-9.999651747040e-03+j9.901063554547e-08
-9.999651746939e-03+j1.051956151770e-07
-9.999651746825e-03+j1.117669570689e-07
-9.999651746696e-03+j1.187487964333e-07
-9.999651746548e-03+j1.261667761603e-07
-9.999651746384e-03+j1.340481409845e-07
-9.999651746199e-03+j1.424218375712e-07
-9.999651745991e-03+j1.513186208165e-07
-9.999651745755e-03+j1.607711668096e-07
-9.999651745489e-03+j1.708141928431e-07
-9.999651745189e-03+j1.814845849219e-07
-9.999651744850e-03+j1.928215332431e-07
-9.999651744465e-03+j2.048666761326e-07
-9.999651744033e-03+j2.176642529561e-07
-9.999651743545e-03+j2.312612666329e-07
-9.999651742995e-03+j2.457076562463e-07
-9.999651742371e-03+j2.610564804752e-07
-9.999651741669e-03+j2.773641124334e-07
-9.999651740875e-03+j2.946904467724e-07
-9.999651739981e-03+j3.130991195974e-07
-9.999651738970e-03+j3.326577422616e-07
-9.999651737831e-03+j3.534381496080e-07
-9.999651736543e-03+j3.755166638909e-07
-9.999651735089e-03+j3.989743750142e-07
-9.999651733448e-03+j4.238974384018e-07
-9.999651731596e-03+j4.503773914196e-07
-9.999651729506e-03+j4.785114895682e-07
-9.999651727147e-03+j5.084030636901e-07
-9.999651724482e-03+j5.401618994901e-07
-9.999651721477e-03+j5.739046406997e-07
-9.999651718082e-03+j6.097552175879e-07
-9.999651714251e-03+j6.478453020267e-07
-9.999651709924e-03+j6.883147911742e-07
-9.999651705044e-03+j7.313123211933e-07
